time	V(1)	V(20)
Step Information: Amplitude=30m Frequency=1K  (Step: 1/36)
0.000000000000000e+00	0.000000e+00	-1.555982e-02
6.399999961104186e-07	1.206368e-04	-1.536676e-02
1.318406352340273e-06	2.485109e-04	-1.481286e-02
1.873304588877594e-06	3.531014e-04	-1.418694e-02
5.367583399573113e-06	1.011574e-03	-9.651777e-03
6.362256260576481e-06	1.198938e-03	-8.477707e-03
7.235385861326055e-06	1.363368e-03	-7.568653e-03
8.025128039984048e-06	1.512060e-03	-6.844047e-03
8.710587827457588e-06	1.641088e-03	-6.286467e-03
9.898428051664871e-06	1.864607e-03	-5.448546e-03
1.153855370312432e-05	2.173061e-03	-4.383395e-03
1.210959644156992e-05	2.280403e-03	-3.974303e-03
1.274394632494472e-05	2.399611e-03	-3.466963e-03
1.359757562737010e-05	2.559966e-03	-2.679931e-03
1.530483423222085e-05	2.880449e-03	-8.781361e-04
1.718886171859650e-05	3.233729e-03	1.302334e-03
2.016136994782909e-05	3.790173e-03	4.853439e-03
2.080516059849274e-05	3.910521e-03	5.691356e-03
2.102448999949635e-05	3.951507e-03	6.025765e-03
2.117450586296763e-05	3.979536e-03	6.300197e-03
2.140596248577836e-05	4.022775e-03	6.794605e-03
2.159278440844736e-05	4.057669e-03	7.262047e-03
2.174137485346191e-05	4.085419e-03	7.699330e-03
2.188670294061805e-05	4.112555e-03	8.193093e-03
2.213514301042608e-05	4.158938e-03	9.205978e-03
2.234005235578091e-05	4.197186e-03	1.023878e-02
2.256591304854213e-05	4.239337e-03	1.159011e-02
2.282749231859847e-05	4.288143e-03	1.342327e-02
2.320204174316900e-05	4.358007e-03	1.638943e-02
2.372877011376495e-05	4.456216e-03	2.061774e-02
2.414164680374164e-05	4.533163e-03	2.358020e-02
2.440186969571464e-05	4.581644e-03	2.516990e-02
2.486312722139890e-05	4.667550e-03	2.747677e-02
2.513959363879819e-05	4.719021e-03	2.861372e-02
2.577867917937311e-05	4.837948e-03	3.061114e-02
2.707560676212756e-05	5.079050e-03	3.356081e-02
3.447344937506263e-05	6.447400e-03	4.757814e-02
5.205157437506264e-05	9.637515e-03	7.960777e-02
7.158282437506266e-05	1.304270e-02	1.135809e-01
9.111407437506268e-05	1.625171e-02	1.454918e-01
1.106453243750627e-04	1.921629e-02	1.748900e-01
1.321296993750627e-04	2.214190e-02	2.038112e-01
1.536140743750627e-04	2.466464e-02	2.286496e-01
1.750984493750627e-04	2.673862e-02	2.489564e-01
1.965828243750628e-04	2.832609e-02	2.643638e-01
2.180671993750628e-04	2.939818e-02	2.745929e-01
2.395515743750628e-04	2.993537e-02	2.794583e-01
2.610359493750628e-04	2.992791e-02	2.788726e-01
2.825203243750628e-04	2.937591e-02	2.728470e-01
3.040046993750628e-04	2.828942e-02	2.614921e-01
3.254890743750628e-04	2.668822e-02	2.450156e-01
3.469734493750629e-04	2.460143e-02	2.237185e-01
3.684578243750629e-04	2.206702e-02	1.979904e-01
3.899421993750629e-04	1.913111e-02	1.683028e-01
4.114265743750629e-04	1.584712e-02	1.352028e-01
4.309578243750629e-04	1.260979e-02	1.026704e-01
4.524421993750630e-04	8.831623e-03	6.485561e-02
4.739265743750630e-04	4.892771e-03	2.602193e-02
4.778328243750630e-04	4.164918e-03	1.918721e-02
4.795586307009861e-04	3.842523e-03	1.628505e-02
4.809706997239560e-04	3.578398e-03	1.400988e-02
4.822932887340800e-04	3.330755e-03	1.200164e-02
4.836301466460387e-04	3.080207e-03	1.012702e-02
4.847193583402547e-04	2.875910e-03	8.751849e-03
4.856712083296056e-04	2.697266e-03	7.688983e-03
4.864490029834147e-04	2.551218e-03	6.924381e-03
4.871348992683757e-04	2.422374e-03	6.328636e-03
4.883098743128896e-04	2.201556e-03	5.452140e-03
4.904999843647123e-04	1.789648e-03	3.984436e-03
4.911215976281846e-04	1.672672e-03	3.503181e-03
4.919447292947627e-04	1.517735e-03	2.773658e-03
4.935550617532298e-04	1.214510e-03	1.135551e-03
4.955081867532298e-04	8.465744e-04	-1.063794e-03
4.988968427095528e-04	2.079386e-04	-5.020850e-03
4.994030949223378e-04	1.125137e-04	-5.643689e-03
4.998338479302928e-04	3.131892e-05	-6.280721e-03
5.000552296378145e-04	-1.041054e-05	-6.692808e-03
5.002604549408418e-04	-4.909458e-05	-7.137343e-03
5.004329536828254e-04	-8.160975e-05	-7.576069e-03
5.005998005658815e-04	-1.130595e-04	-8.070919e-03
5.007515482147780e-04	-1.416630e-04	-8.591007e-03
5.008946045815539e-04	-1.686281e-04	-9.150338e-03
5.011472803304217e-04	-2.162554e-04	-1.033799e-02
5.013900877225319e-04	-2.620220e-04	-1.173056e-02
5.015337971276309e-04	-2.891095e-04	-1.267591e-02
5.016840048416264e-04	-3.174215e-04	-1.374957e-02
5.020896094748773e-04	-3.938708e-04	-1.694715e-02
5.026546268922293e-04	-5.003622e-04	-2.146184e-02
5.031093064101379e-04	-5.860532e-04	-2.462350e-02
5.034689363596661e-04	-6.538273e-04	-2.674230e-02
5.037004557202988e-04	-6.974566e-04	-2.785108e-02
5.040751367911843e-04	-7.680613e-04	-2.932404e-02
5.044643596567959e-04	-8.414016e-04	-3.056956e-02
5.052428053880192e-04	-9.880668e-04	-3.258952e-02
5.065132329227797e-04	-1.227373e-03	-3.530684e-02
5.211443369311042e-04	-3.973899e-03	-6.317184e-02
5.445818369311042e-04	-8.294012e-03	-1.064224e-01
5.680193369311042e-04	-1.243459e-02	-1.476882e-01
5.914568369311043e-04	-1.630598e-02	-1.861536e-01
6.148943369311043e-04	-1.982441e-02	-2.210046e-01
6.383318369311043e-04	-2.291370e-02	-2.514935e-01
6.617693369311043e-04	-2.550697e-02	-2.769637e-01
6.852068369311043e-04	-2.754810e-02	-2.968653e-01
7.066912119311044e-04	-2.889612e-02	-3.098474e-01
7.281755869311044e-04	-2.971839e-02	-3.175522e-01
7.496599619311044e-04	-2.999993e-02	-3.198400e-01
7.711443369311044e-04	-2.973564e-02	-3.166694e-01
7.926287119311044e-04	-2.893031e-02	-3.080986e-01
8.160662119311045e-04	-2.745220e-02	-2.927760e-01
8.395037119311045e-04	-2.537984e-02	-2.715472e-01
8.629412119311045e-04	-2.275808e-02	-2.448727e-01
8.863787119311045e-04	-1.964367e-02	-2.133319e-01
9.098162119311045e-04	-1.610404e-02	-1.776114e-01
9.332537119311046e-04	-1.221581e-02	-1.384925e-01
9.586443369311046e-04	-7.707931e-03	-9.329049e-02
9.879412119311046e-04	-2.270854e-03	-3.920405e-02
9.957537119311046e-04	-8.003115e-04	-2.495237e-02
9.996599619311046e-04	-6.409562e-05	-1.813114e-02
1.001613086931105e-03	3.040545e-04	-1.492241e-02
1.003566211931105e-03	6.721588e-04	-1.196379e-02
1.005519336931105e-03	1.040162e-03	-9.316645e-03
1.006554718118089e-03	1.235186e-03	-8.103676e-03
1.007414509569687e-03	1.397097e-03	-7.244670e-03
1.008149222248308e-03	1.535421e-03	-6.601861e-03
1.009393924492025e-03	1.769685e-03	-5.674262e-03
1.011629579321760e-03	2.190174e-03	-4.202119e-03
1.012210312017685e-03	2.299333e-03	-3.765890e-03
1.012929969050860e-03	2.434561e-03	-3.154703e-03
1.013980153209680e-03	2.631809e-03	-2.126293e-03
1.015933278209680e-03	2.998338e-03	3.387099e-05
1.020291286965933e-03	3.814464e-03	5.224906e-03
1.020686675108972e-03	3.888376e-03	5.763942e-03
1.020872124426935e-03	3.923035e-03	6.061283e-03
1.021061283578292e-03	3.958382e-03	6.416726e-03
1.021252343298616e-03	3.994078e-03	6.834519e-03
1.021431509782338e-03	4.027547e-03	7.293347e-03
1.021587960001017e-03	4.056768e-03	7.761065e-03
1.021731636675885e-03	4.083600e-03	8.256384e-03
1.021973979943227e-03	4.128851e-03	9.258167e-03
1.022175474451450e-03	4.166467e-03	1.028279e-02
1.022401956608017e-03	4.208740e-03	1.164643e-02
1.022667480542180e-03	4.258289e-03	1.351841e-02
1.023048878870015e-03	4.329441e-03	1.655029e-02
1.023585915185804e-03	4.429585e-03	2.084706e-02
1.024020411501919e-03	4.510571e-03	2.388220e-02
1.024381709314636e-03	4.577889e-03	2.603975e-02
1.024595454210226e-03	4.617703e-03	2.709584e-02
1.024908187016315e-03	4.675940e-03	2.838980e-02
1.025481118211139e-03	4.782584e-03	3.024748e-02
1.026576617814157e-03	4.986325e-03	3.288983e-02
1.031158549774973e-03	5.835802e-03	4.170954e-02
1.046746889657474e-03	8.685429e-03	7.040590e-02
1.066278139657474e-03	1.213516e-02	1.048640e-01
1.085809389657474e-03	1.540236e-02	1.373787e-01
1.105340639657474e-03	1.843791e-02	1.675029e-01
1.126825014657474e-03	2.145505e-02	1.973539e-01
1.148309389657474e-03	2.408183e-02	2.232446e-01
1.169793764657474e-03	2.627045e-02	2.447073e-01
1.191278139657474e-03	2.798108e-02	2.613534e-01
1.212762514657474e-03	2.918261e-02	2.728815e-01
1.234246889657474e-03	2.985317e-02	2.790828e-01
1.255731264657474e-03	2.998055e-02	2.798453e-01
1.277215639657474e-03	2.956245e-02	2.751559e-01
1.298700014657474e-03	2.860647e-02	2.651008e-01
1.320184389657474e-03	2.712999e-02	2.498639e-01
1.341668764657474e-03	2.515990e-02	2.297237e-01
1.363153139657474e-03	2.273203e-02	2.050484e-01
1.384637514657474e-03	1.989056e-02	1.762899e-01
1.406121889657474e-03	1.668718e-02	1.439770e-01
1.425653139657474e-03	1.350990e-02	1.120219e-01
1.445184389657474e-03	1.012943e-02	7.813514e-02
1.472528139657474e-03	5.152648e-03	2.882427e-02
1.476434389657474e-03	4.425799e-03	2.189682e-02
1.478387514657474e-03	4.061348e-03	1.853358e-02
1.480340639657474e-03	3.696286e-03	1.529033e-02
1.481923369932432e-03	3.400043e-03	1.281492e-02
1.483548094836808e-03	3.095591e-03	1.047091e-02
1.484658000078432e-03	2.887422e-03	9.024499e-03
1.485586646843940e-03	2.713141e-03	7.954796e-03
1.486419330419959e-03	2.556791e-03	7.108937e-03
1.487119453678396e-03	2.425276e-03	6.480172e-03
1.488324249537971e-03	2.198854e-03	5.557840e-03
1.490521345488581e-03	1.785628e-03	4.090121e-03
1.491117172197240e-03	1.673504e-03	3.641578e-03
1.491877347194809e-03	1.530419e-03	2.994643e-03
1.493083867046291e-03	1.303250e-03	1.815155e-03
1.495036992046291e-03	9.353533e-04	-3.294306e-04
1.499475115130244e-03	9.893829e-05	-5.524618e-03
1.499945902269749e-03	1.019718e-05	-6.188435e-03
1.500195501767324e-03	-3.685120e-05	-6.639753e-03
1.500397432903609e-03	-7.491426e-05	-7.064801e-03
1.500568035964722e-03	-1.070720e-04	-7.487514e-03
1.500738230463571e-03	-1.391527e-04	-7.979306e-03
1.500895755270289e-03	-1.688450e-04	-8.505807e-03
1.501160163413484e-03	-2.186837e-04	-9.577969e-03
1.501395202363936e-03	-2.629861e-04	-1.076772e-02
1.501663611591059e-03	-3.135777e-04	-1.242085e-02
1.501815275538811e-03	-3.421640e-04	-1.348556e-02
1.502226535449920e-03	-4.196783e-04	-1.669616e-02
1.502776780639768e-03	-5.233843e-04	-2.112260e-02
1.503190800235583e-03	-6.014114e-04	-2.409060e-02
1.503507399303969e-03	-6.610757e-04	-2.605586e-02
1.503727182384199e-03	-7.024931e-04	-2.719982e-02
1.504037346910677e-03	-7.609404e-04	-2.855945e-02
1.504343681868122e-03	-8.186631e-04	-2.969386e-02
1.504700927686438e-03	-8.859751e-04	-3.078368e-02
1.505415419323072e-03	-1.020586e-03	-3.260257e-02
1.506820333704561e-03	-1.285209e-03	-3.558130e-02
1.521655061818877e-03	-4.069300e-03	-6.381401e-02
1.545092561818877e-03	-8.386486e-03	-1.070308e-01
1.568530061818877e-03	-1.252213e-02	-1.482453e-01
1.591967561818877e-03	-1.638671e-02	-1.866411e-01
1.615405061818877e-03	-1.989657e-02	-2.214052e-01
1.638842561818877e-03	-2.297572e-02	-2.517920e-01
1.662280061818877e-03	-2.555752e-02	-2.771468e-01
1.683764436818877e-03	-2.743931e-02	-2.954987e-01
1.705248811818877e-03	-2.882186e-02	-3.088282e-01
1.726733186818877e-03	-2.968000e-02	-3.168932e-01
1.748217561818877e-03	-2.999812e-02	-3.195475e-01
1.769701936818877e-03	-2.977043e-02	-3.167431e-01
1.791186311818877e-03	-2.900108e-02	-3.085315e-01
1.812670686818877e-03	-2.770406e-02	-2.950625e-01
1.836108186818877e-03	-2.571530e-02	-2.746642e-01
1.859545686818877e-03	-2.316989e-02	-2.487460e-01
1.882983186818877e-03	-2.012292e-02	-2.178706e-01
1.906420686818877e-03	-1.664035e-02	-1.827098e-01
1.929858186818877e-03	-1.279756e-02	-1.440321e-01
1.953295686818877e-03	-8.677747e-03	-1.026945e-01
1.980639436818874e-03	-3.640387e-03	-5.242740e-02
1.994311311818873e-03	-1.072064e-03	-2.725351e-02
1.998217561818872e-03	-3.359746e-04	-2.032297e-02
2.000000000000000e-03	-1.469576e-17	-1.725569e-02
Step Information: Amplitude=40m Frequency=1K  (Step: 2/36)
0.000000000000000e+00	0.000000e+00	-1.555982e-02
3.199999980552093e-07	8.042472e-05	-1.549822e-02
8.647885445611418e-07	2.173440e-04	-1.511184e-02
1.169238454993798e-06	2.938590e-04	-1.477031e-02
1.609641937070802e-06	4.045402e-04	-1.416039e-02
4.720811709982451e-06	1.186295e-03	-9.213901e-03
5.511336953769171e-06	1.384873e-03	-8.098448e-03
6.202958197205348e-06	1.558579e-03	-7.252042e-03
6.826288815371500e-06	1.715108e-03	-6.585068e-03
7.870657770761284e-06	1.977306e-03	-5.641313e-03
9.740061186453468e-06	2.446417e-03	-4.160010e-03
1.022306145125826e-05	2.567569e-03	-3.722689e-03
1.082081662064818e-05	2.717473e-03	-3.110463e-03
1.169000710260429e-05	2.935378e-03	-2.080527e-03
1.342838806651650e-05	3.370919e-03	2.512763e-04
1.642936014029790e-05	4.121819e-03	4.575836e-03
1.707365570918514e-05	4.282852e-03	5.562487e-03
1.732169234172372e-05	4.344827e-03	6.004614e-03
1.745619993116561e-05	4.378431e-03	6.294858e-03
1.763642104117348e-05	4.423450e-03	6.753805e-03
1.779435056504022e-05	4.462896e-03	7.226657e-03
1.792553598796588e-05	4.495660e-03	7.690005e-03
1.804328277304074e-05	4.525064e-03	8.173263e-03
1.823649569456029e-05	4.573308e-03	9.126221e-03
1.840138071804301e-05	4.614474e-03	1.013811e-02
1.856221397854113e-05	4.654624e-03	1.131606e-02
1.876235822338006e-05	4.704580e-03	1.305952e-02
1.886706503627956e-05	4.730712e-03	1.408969e-02
1.902383374483171e-05	4.769834e-03	1.575200e-02
1.962334071275420e-05	4.919397e-03	2.259107e-02
1.994752180295319e-05	5.000244e-03	2.600786e-02
2.020530954057803e-05	5.064518e-03	2.837875e-02
2.051691140185813e-05	5.142192e-03	3.077011e-02
2.077011794241810e-05	5.205296e-03	3.236535e-02
2.106906243434551e-05	5.279780e-03	3.388795e-02
2.143320680232088e-05	5.370485e-03	3.541102e-02
2.229931831943767e-05	5.586111e-03	3.822004e-02
2.570993913358769e-05	6.433546e-03	4.705990e-02
4.130377038819073e-05	1.026464e-02	8.563305e-02
6.083502038819075e-05	1.491990e-02	1.321307e-01
8.036627038819076e-05	1.935076e-02	1.762353e-01
1.018506453881908e-04	2.388610e-02	2.212554e-01
1.233350203881908e-04	2.798684e-02	2.618394e-01
1.448193953881908e-04	3.157836e-02	2.972562e-01
1.663037703881908e-04	3.459532e-02	3.268650e-01
1.877881453881908e-04	3.698283e-02	3.501293e-01
2.092725203881909e-04	3.869745e-02	3.666271e-01
2.307568953881909e-04	3.970798e-02	3.760593e-01
2.522412703881909e-04	3.999604e-02	3.782552e-01
2.737256453881909e-04	3.955637e-02	3.731758e-01
2.952100203881909e-04	3.839699e-02	3.609143e-01
3.166943953881910e-04	3.653898e-02	3.416946e-01
3.381787703881910e-04	3.401616e-02	3.158678e-01
3.596631453881910e-04	3.087443e-02	2.839055e-01
3.811475203881910e-04	2.717094e-02	2.463916e-01
4.026318953881910e-04	2.297308e-02	2.040135e-01
4.241162703881910e-04	1.835724e-02	1.575524e-01
4.436475203881911e-04	1.386884e-02	1.125060e-01
4.651318953881911e-04	8.693376e-03	6.081936e-02
4.788037703881911e-04	5.311460e-03	2.767031e-02
4.807568953881911e-04	4.824545e-03	2.309232e-02
4.827100203881911e-04	4.336903e-03	1.865438e-02
4.843868781106139e-04	3.917715e-03	1.502664e-02
4.855037024594642e-04	3.638281e-03	1.277259e-02
4.865702478629842e-04	3.371261e-03	1.078197e-02
4.872674798968405e-04	3.196619e-03	9.599762e-03
4.880731430992130e-04	2.994741e-03	8.374742e-03
4.886605165644560e-04	2.847512e-03	7.579690e-03
4.892960502310204e-04	2.688168e-03	6.823210e-03
4.898511665338737e-04	2.548952e-03	6.238756e-03
4.908210623696147e-04	2.305640e-03	5.368053e-03
4.921701921780276e-04	1.967052e-03	4.293494e-03
4.926434714879617e-04	1.848239e-03	3.887613e-03
4.931718913218981e-04	1.715565e-03	3.385364e-03
4.938915210936486e-04	1.534851e-03	2.600302e-03
4.953307806371495e-04	1.173335e-03	8.036523e-04
4.969009683396657e-04	7.788224e-04	-1.353116e-03
4.992927645428993e-04	1.777471e-04	-4.754292e-03
4.999178544379666e-04	2.064543e-05	-5.674550e-03
5.001418267489707e-04	-3.564495e-05	-6.049925e-03
5.002831992481521e-04	-7.117569e-05	-6.329740e-03
5.004835977266111e-04	-1.215412e-04	-6.791252e-03
5.006531453683764e-04	-1.641529e-04	-7.248682e-03
5.007938417264939e-04	-1.995134e-04	-7.696676e-03
5.009264353687465e-04	-2.328373e-04	-8.189551e-03
5.011492121662017e-04	-2.888260e-04	-9.200863e-03
5.013205886336064e-04	-3.318963e-04	-1.018312e-02
5.015224092163740e-04	-3.826173e-04	-1.160238e-02
5.016231352796717e-04	-4.079313e-04	-1.242135e-02
5.017395139627141e-04	-4.371789e-04	-1.346494e-02
5.018784895151216e-04	-4.721049e-04	-1.483395e-02
5.020551087210767e-04	-5.164908e-04	-1.672518e-02
5.024805943329263e-04	-6.234161e-04	-2.160693e-02
5.027431569864577e-04	-6.893964e-04	-2.450603e-02
5.031158615612135e-04	-7.830514e-04	-2.816938e-02
5.034369179731653e-04	-8.637246e-04	-3.082757e-02
5.036460834264612e-04	-9.162806e-04	-3.222750e-02
5.039674916825074e-04	-9.970361e-04	-3.397639e-02
5.042976997744766e-04	-1.079998e-03	-3.542691e-02
5.049581159584148e-04	-1.245909e-03	-3.778422e-02
5.062383771623482e-04	-1.567474e-03	-4.139702e-02
5.199579070160386e-04	-5.002833e-03	-7.618992e-02
5.433954070160386e-04	-1.077182e-02	-1.339150e-01
5.668329070160386e-04	-1.630763e-02	-1.890738e-01
5.902704070160387e-04	-2.149042e-02	-2.405644e-01
6.137079070160387e-04	-2.620802e-02	-2.872930e-01
6.371454070160387e-04	-3.035828e-02	-3.282555e-01
6.586297820160387e-04	-3.358734e-02	-3.599821e-01
6.801141570160387e-04	-3.620529e-02	-3.855438e-01
7.015985320160388e-04	-3.816449e-02	-4.044763e-01
7.230829070160388e-04	-3.942930e-02	-4.164357e-01
7.445672820160388e-04	-3.997670e-02	-4.212049e-01
7.660516570160388e-04	-3.979674e-02	-4.186974e-01
7.875360320160388e-04	-3.889268e-02	-4.089592e-01
8.090204070160388e-04	-3.728099e-02	-3.921679e-01
8.305047820160389e-04	-3.499097e-02	-3.686295e-01
8.519891570160389e-04	-3.206431e-02	-3.387731e-01
8.754266570160389e-04	-2.820835e-02	-2.996393e-01
8.988641570160389e-04	-2.374176e-02	-2.544863e-01
9.223016570160390e-04	-1.876123e-02	-2.042971e-01
9.457391570160390e-04	-1.337458e-02	-1.501727e-01
9.711297820160390e-04	-7.216150e-03	-8.852157e-02
9.926141570160390e-04	-1.855599e-03	-3.545553e-02
9.965204070160390e-04	-8.744475e-04	-2.606214e-02
9.984735320160390e-04	-3.836374e-04	-2.151388e-02
1.000426657016039e-03	1.072305e-04	-1.715334e-02
1.001983876338801e-03	4.985896e-04	-1.390917e-02
1.003452344340026e-03	8.676007e-04	-1.111368e-02
1.004359611421372e-03	1.095553e-03	-9.587327e-03
1.005403677532402e-03	1.357831e-03	-8.073882e-03
1.006123232060940e-03	1.538556e-03	-7.179799e-03
1.006750629173655e-03	1.696110e-03	-6.511509e-03
1.007779628553244e-03	1.954455e-03	-5.588342e-03
1.009634271106287e-03	2.419878e-03	-4.111952e-03
1.010123886154629e-03	2.542695e-03	-3.661809e-03
1.010740808467910e-03	2.697411e-03	-3.018218e-03
1.011678943753005e-03	2.932605e-03	-1.884686e-03
1.013555214323194e-03	3.402680e-03	6.692489e-04
1.016496515605811e-03	4.138607e-03	4.921569e-03
1.017032803577497e-03	4.272643e-03	5.786414e-03
1.017223453306926e-03	4.320282e-03	6.151040e-03
1.017348741940174e-03	4.351585e-03	6.442498e-03
1.017545518603465e-03	4.400743e-03	6.983516e-03
1.017703583694176e-03	4.440226e-03	7.496872e-03
1.017822618132431e-03	4.469956e-03	7.953546e-03
1.018030615327750e-03	4.521901e-03	8.929715e-03
1.018198273978695e-03	4.563765e-03	9.917499e-03
1.018375356714021e-03	4.607977e-03	1.118315e-02
1.018567002269546e-03	4.655819e-03	1.281936e-02
1.018671374968980e-03	4.681872e-03	1.382741e-02
1.018807789622718e-03	4.715919e-03	1.524976e-02
1.019393650026043e-03	4.862103e-03	2.193186e-02
1.019675476917230e-03	4.932401e-03	2.496785e-02
1.020009307267380e-03	5.015650e-03	2.815244e-02
1.020271421425119e-03	5.081000e-03	3.022935e-02
1.020637289098468e-03	5.172194e-03	3.255626e-02
1.020930938797708e-03	5.245368e-03	3.406472e-02
1.021238221331309e-03	5.321919e-03	3.531947e-02
1.021852786398511e-03	5.474963e-03	3.739852e-02
1.023347382192429e-03	5.846814e-03	4.150081e-02
1.035727728363136e-03	8.904131e-03	7.242663e-02
1.055258978363136e-03	1.361074e-02	1.195072e-01
1.074790228363136e-03	1.811263e-02	1.643549e-01
1.096274603363136e-03	2.274756e-02	2.103969e-01
1.117758978363136e-03	2.696861e-02	2.522050e-01
1.139243353363136e-03	3.069897e-02	2.890278e-01
